
T0734 000:019 SEGGER J-Link V4.60a Log File (0000ms, 0019ms total)
T0734 000:019 DLL Compiled: Jan 16 2013 17:15:30 (0000ms, 0019ms total)
T0734 000:019 Logging started @ 2014-04-26 15:31 (0000ms, 0019ms total)
T0734 000:019 JLINK_SetWarnOutHandler(...) (0000ms, 0019ms total)
T0734 000:019 JLINK_OpenEx(...)
Firmware: J-Link ARM V8 compiled Nov 14 2012 22:34:52
Hardware: V8.00
S/N: 799713843
Feature(s): RDI,FlashDL,FlashBP,JFlash,GDBFULL  returns O.K. (0011ms, 0030ms total)
T0734 000:030 JLINK_SetErrorOutHandler(...) (0000ms, 0030ms total)
T0734 000:030 JLINK_ExecCommand("ProjectFile = "C:\Users\John\Dropbox\grad_proj\rtt_f407\RT-Thread_1.2.0\bsp\stm32f40x\JLinkSettings.ini"", ...)  returns 0x00 (0000ms, 0030ms total)
T0734 000:030 JLINK_ExecCommand("Device = STM32F407IG", ...)
                JLINK_ExecCommand("map ram 0x20000000 - 0x2001FFFF", ...)  returns 0x00 (0000ms, 0000ms total)
                JLINK_AddMirrorAreaEx(Addr = 0x00000000, Size = 0x00000000) (0000ms, 0000ms total)
              Device "STM32F407IG" selected (1024 KB flash, 128 KB RAM).  returns 0x00 (0002ms, 0032ms total)
T0734 000:032 JLINK_ExecCommand("DisableConnectionTimeout", ...)  returns 0x00 (0000ms, 0032ms total)
T0734 000:032 JLINK_TIF_Select(JLINKARM_TIF_SWD)  returns 0x00 (0002ms, 0034ms total)
T0734 000:034 JLINK_SetSpeed(2000) (0000ms, 0034ms total)
T0734 000:034 JLINK_GetHardwareVersion()  returns 0x13880 (0000ms, 0034ms total)
T0734 000:034 JLINK_GetDLLVersion()  returns 46001 (0000ms, 0034ms total)
T0734 000:034 JLINK_GetFirmwareString(...) (0000ms, 0034ms total)
T0734 000:035 JLINK_GetDLLVersion()  returns 46001 (0000ms, 0034ms total)
T0734 000:035 JLINK_GetCompileDateTime() (0000ms, 0034ms total)
T0734 000:035 JLINK_GetFirmwareString(...) (0001ms, 0035ms total)
T0734 000:036 JLINK_GetHardwareVersion()  returns 0x13880 (0000ms, 0035ms total)
T0734 000:036 JLINK_GetId() >0x108 TIF>Found SWD-DP with ID 0x2BA01477 >0x0D TIF> >0x28 TIF> >0x0D TIF> >0x28 TIF> >0x0D TIF> >0x21 TIF> >0x0D TIF> >0x28 TIF> >0x0D TIF> >0x28 TIF> >0x0D TIF> >0x28 TIF> >0x0D TIF> >0x21 TIF> >0x0D TIF> >0x21 TIF> >0x0D TIF> >0x28 TIF> >0x0D TIF> >0x21 TIF> >0x0D TIF> >0x21 TIF> >0x0D TIF> >0x28 TIF> >0x0D TIF> >0x21 TIF> >0x0D TIF> >0x21 TIF> >0x108 TIF>Found SWD-DP with ID 0x2BA01477 >0x0D TIF> >0x21 TIF> >0x0D TIF> >0x28 TIF> >0x0D TIF> >0x28 TIF> >0x0D TIF> >0x21 TIF>
 >0x0D TIF> >0x21 TIF> >0x0D TIF> >0x28 TIF> >0x0D TIF> >0x21 TIF> >0x0D TIF> >0x21 TIF> >0x0D TIF> >0x21 TIF> >0x0D TIF> >0x21 TIF> >0x0D TIF> >0x21 TIF> >0x0D TIF> >0x28 TIF> >0x0D TIF> >0x28 TIF> >0x0D TIF> >0x21 TIF> >0x0D TIF> >0x21 TIF> >0x0D TIF> >0x28 TIF> >0x0D TIF> >0x21 TIF> >0x0D TIF> >0x21 TIF> >0x0D TIF> >0x28 TIF> >0x0D TIF> >0x28 TIF> >0x0D TIF> >0x28 TIF> >0x0D TIF> >0x21 TIF> >0x0D TIF> >0x21 TIF> >0x0D TIF> >0x28 TIF> >0x0D TIF> >0x28 TIF> >0x0D TIF> >0x28 TIF> >0x0D TIF> >0x21 TIF>
 >0x0D TIF> >0x21 TIF> >0x0D TIF> >0x21 TIF>TPIU fitted.ETM fitted. >0x0D TIF> >0x28 TIF> >0x0D TIF> >0x21 TIF> >0x0D TIF> >0x21 TIF> >0x0D TIF> >0x28 TIF> >0x0D TIF> >0x21 TIF> >0x0D TIF> >0x21 TIF>FPUnit: 6 code (BP) slots and 2 literal slots >0x0D TIF> >0x28 TIF> >0x0D TIF> >0x21 TIF> >0x0D TIF> >0x21 TIF> >0x0D TIF> >0x28 TIF> >0x0D TIF> >0x21 TIF> >0x0D TIF> >0x21 TIF> >0x0D TIF> >0x28 TIF> >0x0D TIF> >0x21 TIF> >0x0D TIF> >0x21 TIF> >0x0D TIF> >0x28 TIF> >0x0D TIF> >0x21 TIF> >0x0D TIF> >0x21 TIF>
Found Cortex-M4 r0p1, Little endian. >0x0D TIF> >0x21 TIF>  returns 0x2BA01477 (0051ms, 0086ms total)
T0734 000:087 JLINK_GetDeviceFamily()  returns 14 (0000ms, 0086ms total)
T0734 000:087 JLINK_ReadMem (0xE00FFFF0, 0x0010 Bytes, ...) -- CPU is running -- CPU_ReadMem(16 bytes @ 0xE00FFFF0) -- Data:  0D 00 00 00 10 00 00 00 05 00 00 00 B1 00 00 00  returns 0x00 (0001ms, 0087ms total)
T0734 000:088 JLINK_ReadMem (0xE00FFFD0, 0x0020 Bytes, ...) -- CPU is running -- CPU_ReadMem(32 bytes @ 0xE00FFFD0) -- Data:  00 00 00 00 00 00 00 00 00 00 00 00 00 00 00 00 ...  returns 0x00 (0001ms, 0088ms total)
T0734 000:089 JLINK_ReadMem (0xE00FF000, 0x0018 Bytes, ...) -- CPU is running -- CPU_ReadMem(24 bytes @ 0xE00FF000) -- Data:  03 F0 F0 FF 03 20 F0 FF 03 30 F0 FF 03 10 F0 FF ...  returns 0x00 (0001ms, 0089ms total)
T0734 000:090 JLINK_ReadMemU32(0xE000ED00, 0x0001 Items, ...) -- CPU is running -- CPU_ReadMem(4 bytes @ 0xE000ED00) -- Data:  41 C2 0F 41  returns 0x01 (0001ms, 0090ms total)
T0734 000:091 JLINK_ReadMemU32(0xE000EF40, 0x0001 Items, ...) -- CPU is running -- CPU_ReadMem(4 bytes @ 0xE000EF40) -- Data:  21 00 11 10  returns 0x01 (0001ms, 0091ms total)
T0734 000:092 JLINK_ReadMemU32(0xE000EF44, 0x0001 Items, ...) -- CPU is running -- CPU_ReadMem(4 bytes @ 0xE000EF44) -- Data:  11 00 00 11  returns 0x01 (0001ms, 0092ms total)
T0734 000:093 JLINK_SetResetType(JLINKARM_RESET_TYPE_NORMAL)  returns JLINKARM_RESET_TYPE_NORMAL (0000ms, 0092ms total)
T0734 000:093 JLINK_Reset() -- CPU is running -- CPU_WriteMem(4 bytes @ 0xE000EDF0) -- CPU is running -- CPU_WriteMem(4 bytes @ 0xE000EDFC) >0x35 TIF> -- CPU is running -- CPU_WriteMem(4 bytes @ 0xE000ED0C) -- CPU is running -- CPU_ReadMem(4 bytes @ 0xE000EDF0) -- CPU is running -- CPU_ReadMem(4 bytes @ 0xE000EDF0) -- CPU is running -- CPU_WriteMem(4 bytes @ 0xE000EDF0) -- CPU is running -- CPU_WriteMem(4 bytes @ 0xE000EDFC) -- CPU is running -- CPU_ReadMem(4 bytes @ 0xE000EDF0)
 -- CPU_WriteMem(4 bytes @ 0xE0002000) (0018ms, 0110ms total)
T0734 000:111 JLINK_ReadReg(R15)  returns 0x08004B2C (0000ms, 0110ms total)
T0734 000:111 JLINK_ReadReg(XPSR)  returns 0x01000000 (0000ms, 0110ms total)
T0734 000:111 JLINK_Halt()  returns 0x00 (0000ms, 0110ms total)
T0734 000:111 JLINK_IsHalted()  returns TRUE (0000ms, 0110ms total)
T0734 000:111 JLINK_ReadMemU32(0xE000EDF0, 0x0001 Items, ...) -- CPU_ReadMem(4 bytes @ 0xE000EDF0) -- Data:  03 00 03 00  returns 0x01 (0000ms, 0110ms total)
T0734 000:111 JLINK_WriteU32(0xE000EDF0, 0xA05F0003) -- CPU_WriteMem(4 bytes @ 0xE000EDF0)  returns 0x00 (0001ms, 0111ms total)
T0734 000:112 JLINK_WriteU32(0xE000EDFC, 0x01000000) -- CPU_WriteMem(4 bytes @ 0xE000EDFC)  returns 0x00 (0001ms, 0112ms total)
T0734 000:113 JLINK_GetHWStatus(...)  returns 0x00 (0000ms, 0112ms total)
T0734 000:114 JLINK_GetNumBPUnits(Type = 0xFFFFFF00)  returns 0x06 (0000ms, 0112ms total)
T0734 000:114 JLINK_GetNumBPUnits(Type = 0xF0)  returns 0x2000 (0000ms, 0112ms total)
T0734 000:114 JLINK_GetNumWPUnits()  returns 0x04 (0000ms, 0112ms total)
T0734 000:114 JLINK_GetSpeed()  returns 0x7D0 (0000ms, 0112ms total)
T0734 000:114 JLINK_ReadMemU32(0xE000E004, 0x0001 Items, ...) -- CPU_ReadMem(4 bytes @ 0xE000E004) -- Data:  02 00 00 00  returns 0x01 (0001ms, 0113ms total)
T0734 000:115 JLINK_ReadMemU32(0xE000E004, 0x0001 Items, ...) -- CPU_ReadMem(4 bytes @ 0xE000E004) -- Data:  02 00 00 00  returns 0x01 (0000ms, 0113ms total)
T0734 000:115 JLINK_WriteMem(0xE0001000, 0x001C Bytes, ...) -- Data:  01 00 00 00 00 00 00 00 00 00 00 00 00 00 00 00 ... -- CPU_WriteMem(28 bytes @ 0xE0001000)  returns 0x1C (0001ms, 0114ms total)
T0734 000:116 JLINK_ReadMem (0xE0001000, 0x001C Bytes, ...) -- CPU_ReadMem(28 bytes @ 0xE0001000) -- Data:  01 00 00 40 00 00 00 00 00 00 00 00 00 00 00 00 ...  returns 0x00 (0001ms, 0115ms total)
T0734 000:117 JLINK_ReadReg(R15)  returns 0x08004B2C (0000ms, 0115ms total)
T0734 000:117 JLINK_ReadReg(XPSR)  returns 0x01000000 (0000ms, 0115ms total)
T0734 000:144 JLINK_ReadMem (0x08000000, 0x1000 Bytes, ...) -- CPU_ReadMem(4096 bytes @ 0x08000000) -- Updating C cache (4096 bytes @ 0x08000000) -- Read from C cache (4096 bytes @ 0x08000000) -- Data:  F8 24 00 20 2D 4B 00 08 A9 0C 00 08 91 97 00 08 ...  returns 0x00 (0045ms, 0160ms total)
T0734 000:189 JLINK_ReadMem (0x08001000, 0x1000 Bytes, ...) -- CPU_ReadMem(4096 bytes @ 0x08001000) -- Updating C cache (4096 bytes @ 0x08001000) -- Read from C cache (4096 bytes @ 0x08001000) -- Data:  6B 00 B2 FB F3 F5 12 4E 35 60 03 E0 0F 4D 10 4E ...  returns 0x00 (0045ms, 0205ms total)
T0734 000:235 JLINK_ReadMem (0x08002000, 0x1000 Bytes, ...) -- CPU_ReadMem(4096 bytes @ 0x08002000) -- Updating C cache (4096 bytes @ 0x08002000) -- Read from C cache (4096 bytes @ 0x08002000) -- Data:  84 42 0E D0 B4 F1 20 5F 0B D0 B4 F1 10 5F 08 D0 ...  returns 0x00 (0045ms, 0250ms total)
T0734 000:280 JLINK_ReadMem (0x08003000, 0x1000 Bytes, ...) -- CPU_ReadMem(4096 bytes @ 0x08003000) -- Updating C cache (4096 bytes @ 0x08003000) -- Read from C cache (4096 bytes @ 0x08003000) -- Data:  06 46 64 1C B4 F5 A0 6F 01 D0 00 2E F5 D0 31 20 ...  returns 0x00 (0083ms, 0333ms total)
T0734 000:364 JLINK_ReadMem (0x08004000, 0x1000 Bytes, ...) -- CPU_ReadMem(4096 bytes @ 0x08004000) -- Updating C cache (4096 bytes @ 0x08004000) -- Read from C cache (4096 bytes @ 0x08004000) -- Data:  1E 48 84 42 00 D1 04 E0 40 F2 9B 11 1C A0 FC F7 ...  returns 0x00 (0045ms, 0378ms total)
T0734 000:410 JLINK_ReadMem (0x08005000, 0x1000 Bytes, ...) -- CPU_ReadMem(4096 bytes @ 0x08005000) -- Updating C cache (4096 bytes @ 0x08005000) -- Read from C cache (4096 bytes @ 0x08005000) -- Data:  3A A0 02 F0 7F F9 00 25 56 23 37 4A 40 A1 41 A0 ...  returns 0x00 (0044ms, 0422ms total)
T0734 000:455 JLINK_ReadMem (0x08006000, 0x1000 Bytes, ...) -- CPU_ReadMem(4096 bytes @ 0x08006000) -- Updating C cache (4096 bytes @ 0x08006000) -- Read from C cache (4096 bytes @ 0x08006000) -- Data:  00 2D FD D0 00 BF 30 46 03 F0 54 FB 00 BF 6C B9 ...  returns 0x00 (0045ms, 0467ms total)
T0734 000:501 JLINK_ReadMem (0x08007000, 0x1000 Bytes, ...) -- CPU_ReadMem(4096 bytes @ 0x08007000) -- Updating C cache (4096 bytes @ 0x08007000) -- Read from C cache (4096 bytes @ 0x08007000) -- Data:  0A 90 6F E1 0B 98 00 78 25 28 06 D0 B4 42 02 D8 ...  returns 0x00 (0044ms, 0511ms total)
T0734 000:546 JLINK_ReadMem (0x08008000, 0x1000 Bytes, ...) -- CPU_ReadMem(4096 bytes @ 0x08008000) -- Updating C cache (4096 bytes @ 0x08008000) -- Read from C cache (4096 bytes @ 0x08008000) -- Data:  00 BF 58 46 01 F0 56 FB 00 BF 49 46 06 20 00 F0 ...  returns 0x00 (0045ms, 0556ms total)
T0734 000:591 JLINK_ReadMem (0x08009000, 0x1000 Bytes, ...) -- CPU_ReadMem(4096 bytes @ 0x08009000) -- Updating C cache (4096 bytes @ 0x08009000) -- Read from C cache (4096 bytes @ 0x08009000) -- Data:  6D 1C 01 2D F6 DB BD E8 F0 87 70 B5 04 46 20 46 ...  returns 0x00 (0045ms, 0601ms total)
T0734 000:637 JLINK_ReadMem (0x0800A000, 0x1000 Bytes, ...) -- CPU_ReadMem(4096 bytes @ 0x0800A000) -- Updating C cache (4096 bytes @ 0x0800A000) -- Read from C cache (4096 bytes @ 0x0800A000) -- Data:  FD F7 80 F9 B5 48 04 68 0D E0 02 22 B4 A1 20 68 ...  returns 0x00 (0045ms, 0646ms total)
T0734 000:682 JLINK_ReadMem (0x0800B000, 0x1000 Bytes, ...) -- CPU_ReadMem(4096 bytes @ 0x0800B000) -- Updating C cache (4096 bytes @ 0x0800B000) -- Read from C cache (4096 bytes @ 0x0800B000) -- Data:  09 0C F3 4A 12 68 91 70 00 F1 14 01 09 0E F0 4A ...  returns 0x00 (0045ms, 0691ms total)
T0734 000:728 JLINK_ReadMem (0x0800C000, 0x1000 Bytes, ...) -- CPU_ReadMem(4096 bytes @ 0x0800C000) -- Updating C cache (4096 bytes @ 0x0800C000) -- Read from C cache (4096 bytes @ 0x0800C000) -- Data:  D9 48 00 68 10 F8 08 0C D7 49 09 68 11 F8 04 1C ...  returns 0x00 (0045ms, 0736ms total)
T0734 000:773 JLINK_ReadMem (0x0800D000, 0x1000 Bytes, ...) -- CPU_ReadMem(4096 bytes @ 0x0800D000) -- Updating C cache (4096 bytes @ 0x0800D000) -- Read from C cache (4096 bytes @ 0x0800D000) -- Data:  38 46 BD E8 F0 81 2D E9 F0 41 04 46 20 46 FF F7 ...  returns 0x00 (0045ms, 0781ms total)
T0734 000:819 JLINK_ReadMem (0x0800E000, 0x1000 Bytes, ...) -- CPU_ReadMem(4096 bytes @ 0x0800E000) -- Updating C cache (4096 bytes @ 0x0800E000) -- Read from C cache (4096 bytes @ 0x0800E000) -- Data:  81 F8 20 00 9D F8 04 00 41 28 36 D1 1B 48 00 68 ...  returns 0x00 (0045ms, 0826ms total)
T0734 000:864 JLINK_ReadMem (0x0800F000, 0x1000 Bytes, ...) -- CPU_ReadMem(4096 bytes @ 0x0800F000) -- Updating C cache (4096 bytes @ 0x0800F000) -- Read from C cache (4096 bytes @ 0x0800F000) -- Data:  20 6A 40 1C 20 62 C0 1C 20 62 06 E0 20 6A FA E7 ...  returns 0x00 (0045ms, 0871ms total)
T0734 000:910 JLINK_ReadMem (0x08010000, 0x0BF4 Bytes, ...) -- CPU_ReadMem(3072 bytes @ 0x08010000) -- Updating C cache (3072 bytes @ 0x08010000) -- Read from C cache (3060 bytes @ 0x08010000) -- Data:  52 55 43 54 5F 4D 45 4D 20 2B 20 73 69 7A 65 20 ...  returns 0x00 (0033ms, 0904ms total)
T0734 000:995 JLINK_SetResetType(JLINKARM_RESET_TYPE_NORMAL)  returns JLINKARM_RESET_TYPE_NORMAL (0000ms, 0904ms total)
T0734 000:995 JLINK_Reset() -- CPU_WriteMem(4 bytes @ 0xE000EDF0) -- CPU_WriteMem(4 bytes @ 0xE000EDFC) >0x35 TIF> -- CPU_WriteMem(4 bytes @ 0xE000ED0C) -- CPU_ReadMem(4 bytes @ 0xE000EDF0) -- CPU_ReadMem(4 bytes @ 0xE000EDF0) -- CPU_WriteMem(4 bytes @ 0xE000EDF0) -- CPU_WriteMem(4 bytes @ 0xE000EDFC) -- CPU is running -- CPU_ReadMem(4 bytes @ 0xE000EDF0) -- CPU_WriteMem(4 bytes @ 0xE0002000) (0018ms, 0922ms total)
T0734 001:013 JLINK_ReadReg(R15)  returns 0x08004B2C (0000ms, 0922ms total)
T0734 001:013 JLINK_ReadReg(XPSR)  returns 0x01000000 (0000ms, 0922ms total)
T0734 001:013 JLINK_ReadMemU32(0xE0001004, 0x0001 Items, ...) -- CPU_ReadMem(4 bytes @ 0xE0001004) -- Data:  8E 03 00 00  returns 0x01 (0001ms, 0923ms total)
T0734 001:014 JLINK_ReadMem (0x08004B2C, 0x003C Bytes, ...) -- CPU_ReadMem(128 bytes @ 0x08004B00) -- Updating C cache (128 bytes @ 0x08004B00) -- Read from C cache (60 bytes @ 0x08004B2C) -- Data:  09 48 80 47 09 48 00 47 FE E7 FE E7 FE E7 FE E7 ...  returns 0x00 (0002ms, 0925ms total)
T0734 001:605 JLINK_ReadMem (0x080002AA, 0x0002 Bytes, ...) -- CPU_ReadMem(64 bytes @ 0x08000280) -- Updating C cache (64 bytes @ 0x08000280) -- Read from C cache (2 bytes @ 0x080002AA) -- Data:  03 20  returns 0x00 (0001ms, 0926ms total)
T0734 001:606 JLINK_ReadMem (0x080002AC, 0x003C Bytes, ...) -- CPU_ReadMem(64 bytes @ 0x080002C0) -- Updating C cache (64 bytes @ 0x080002C0) -- Read from C cache (60 bytes @ 0x080002AC) -- Data:  8D F8 05 00 00 20 8D F8 07 00 69 46 7D 48 02 F0 ...  returns 0x00 (0001ms, 0927ms total)
T12A8 001:766 JLINK_SetBPEx(Addr = 0x08000578, Type = 0xFFFFFFF2)  returns 0x00000001 (0000ms, 0927ms total)
T12A8 001:766 JLINK_Go() -- CPU_WriteMem(4 bytes @ 0xE0002008) -- CPU_WriteMem(4 bytes @ 0xE000200C) -- CPU_WriteMem(4 bytes @ 0xE0002010) -- CPU_WriteMem(4 bytes @ 0xE0002014) -- CPU_WriteMem(4 bytes @ 0xE0002018) -- CPU_WriteMem(4 bytes @ 0xE000201C) (0005ms, 0932ms total)
T12A8 001:871 JLINK_IsHalted()  returns TRUE (0003ms, 0935ms total)
T12A8 001:874 JLINK_Halt()  returns 0x00 (0000ms, 0932ms total)
T12A8 001:874 JLINK_IsHalted()  returns TRUE (0000ms, 0932ms total)
T12A8 001:874 JLINK_IsHalted()  returns TRUE (0000ms, 0932ms total)
T12A8 001:874 JLINK_IsHalted()  returns TRUE (0000ms, 0932ms total)
T12A8 001:874 JLINK_ReadReg(R15)  returns 0x08000578 (0000ms, 0932ms total)
T12A8 001:874 JLINK_ReadReg(XPSR)  returns 0x61000000 (0000ms, 0932ms total)
T12A8 001:874 JLINK_ClrBPEx(BPHandle = 0x00000001)  returns 0x00 (0001ms, 0933ms total)
T12A8 001:875 JLINK_ReadMemU32(0xE000ED30, 0x0001 Items, ...) -- CPU_ReadMem(4 bytes @ 0xE000ED30) -- Data:  03 00 00 00  returns 0x01 (0000ms, 0933ms total)
T12A8 001:875 JLINK_ReadMemU32(0xE0001028, 0x0001 Items, ...) -- CPU_ReadMem(4 bytes @ 0xE0001028) -- Data:  00 00 00 00  returns 0x01 (0001ms, 0934ms total)
T12A8 001:876 JLINK_ReadMemU32(0xE0001038, 0x0001 Items, ...) -- CPU_ReadMem(4 bytes @ 0xE0001038) -- Data:  00 02 00 00  returns 0x01 (0001ms, 0935ms total)
T12A8 001:877 JLINK_ReadMemU32(0xE0001048, 0x0001 Items, ...) -- CPU_ReadMem(4 bytes @ 0xE0001048) -- Data:  00 00 00 00  returns 0x01 (0000ms, 0935ms total)
T12A8 001:877 JLINK_ReadMemU32(0xE0001058, 0x0001 Items, ...) -- CPU_ReadMem(4 bytes @ 0xE0001058) -- Data:  00 00 00 00  returns 0x01 (0001ms, 0936ms total)
T12A8 001:878 JLINK_ReadReg(R0)  returns 0x20001EF8 (0000ms, 0936ms total)
T12A8 001:878 JLINK_ReadReg(R1)  returns 0x200020F8 (0000ms, 0936ms total)
T12A8 001:878 JLINK_ReadReg(R2)  returns 0x200020F8 (0000ms, 0936ms total)
T12A8 001:878 JLINK_ReadReg(R3)  returns 0x200020F8 (0000ms, 0936ms total)
T12A8 001:878 JLINK_ReadReg(R4)  returns 0x00000000 (0000ms, 0936ms total)
T12A8 001:878 JLINK_ReadReg(R5)  returns 0x20001E98 (0000ms, 0936ms total)
T12A8 001:878 JLINK_ReadReg(R6)  returns 0x00000000 (0000ms, 0936ms total)
T12A8 001:878 JLINK_ReadReg(R7)  returns 0x00000000 (0000ms, 0936ms total)
T12A8 001:878 JLINK_ReadReg(R8)  returns 0x00000000 (0000ms, 0936ms total)
T12A8 001:878 JLINK_ReadReg(R9)  returns 0x00000000 (0000ms, 0936ms total)
T12A8 001:879 JLINK_ReadReg(R10)  returns 0x08010A10 (0000ms, 0936ms total)
T12A8 001:879 JLINK_ReadReg(R11)  returns 0x00000000 (0000ms, 0936ms total)
T12A8 001:879 JLINK_ReadReg(R12)  returns 0x20001ED8 (0000ms, 0936ms total)
T12A8 001:879 JLINK_ReadReg(R13)  returns 0x200024F8 (0000ms, 0936ms total)
T12A8 001:879 JLINK_ReadReg(R14)  returns 0x0800027D (0000ms, 0936ms total)
T12A8 001:879 JLINK_ReadReg(R15)  returns 0x08000578 (0000ms, 0936ms total)
T12A8 001:879 JLINK_ReadReg(XPSR)  returns 0x61000000 (0000ms, 0936ms total)
T12A8 001:879 JLINK_ReadReg(MSP)  returns 0x200024F8 (0000ms, 0936ms total)
T12A8 001:879 JLINK_ReadReg(PSP)  returns 0x00000000 (0000ms, 0936ms total)
T12A8 001:879 JLINK_ReadReg(CFBP)  returns 0x04000000 (0000ms, 0936ms total)
T12A8 001:879 JLINK_ReadReg(FPSCR)  returns 0x03000000 (0005ms, 0941ms total)
T12A8 001:884 JLINK_ReadReg(FPS0)  returns 0x00000000 (0001ms, 0942ms total)
T12A8 001:885 JLINK_ReadReg(FPS1)  returns 0x00000000 (0000ms, 0942ms total)
T12A8 001:885 JLINK_ReadReg(FPS2)  returns 0x00000000 (0000ms, 0942ms total)
T12A8 001:885 JLINK_ReadReg(FPS3)  returns 0x00000000 (0000ms, 0942ms total)
T12A8 001:885 JLINK_ReadReg(FPS4)  returns 0x00000000 (0000ms, 0942ms total)
T12A8 001:885 JLINK_ReadReg(FPS5)  returns 0x00000000 (0000ms, 0942ms total)
T12A8 001:885 JLINK_ReadReg(FPS6)  returns 0x00000000 (0000ms, 0942ms total)
T12A8 001:885 JLINK_ReadReg(FPS7)  returns 0x00000000 (0000ms, 0942ms total)
T12A8 001:885 JLINK_ReadReg(FPS8)  returns 0x00000000 (0000ms, 0942ms total)
T12A8 001:885 JLINK_ReadReg(FPS9)  returns 0x00000000 (0000ms, 0942ms total)
T12A8 001:885 JLINK_ReadReg(FPS10)  returns 0x00000000 (0000ms, 0942ms total)
T12A8 001:885 JLINK_ReadReg(FPS11)  returns 0x00000000 (0000ms, 0942ms total)
T12A8 001:885 JLINK_ReadReg(FPS12)  returns 0x00000000 (0000ms, 0942ms total)
T12A8 001:885 JLINK_ReadReg(FPS13)  returns 0x00000000 (0000ms, 0942ms total)
T12A8 001:885 JLINK_ReadReg(FPS14)  returns 0x00000000 (0000ms, 0942ms total)
T12A8 001:885 JLINK_ReadReg(FPS15)  returns 0x00000000 (0000ms, 0942ms total)
T12A8 001:885 JLINK_ReadReg(FPS16)  returns 0x00000000 (0000ms, 0942ms total)
T12A8 001:885 JLINK_ReadReg(FPS17)  returns 0x00000000 (0000ms, 0942ms total)
T12A8 001:885 JLINK_ReadReg(FPS18)  returns 0x00000000 (0000ms, 0942ms total)
T12A8 001:885 JLINK_ReadReg(FPS19)  returns 0x00000000 (0000ms, 0942ms total)
T12A8 001:885 JLINK_ReadReg(FPS20)  returns 0x00000000 (0000ms, 0942ms total)
T12A8 001:885 JLINK_ReadReg(FPS31)  returns 0x00000000 (0000ms, 0942ms total)
T12A8 001:885 JLINK_ReadReg(FPS7)  returns 0x00000000 (0000ms, 0942ms total)
T12A8 001:885 JLINK_ReadReg(FPS8)  returns 0x00000000 (0000ms, 0942ms total)
T12A8 001:885 JLINK_ReadReg(FPS9)  returns 0x00000000 (0000ms, 0942ms total)
T12A8 001:885 JLINK_ReadReg(FPS10)  returns 0x00000000 (0000ms, 0942ms total)
T12A8 001:885 JLINK_ReadReg(FPS11)  returns 0x00000000 (0000ms, 0942ms total)
T12A8 001:885 JLINK_ReadReg(FPS12)  returns 0x00000000 (0000ms, 0942ms total)
T12A8 001:885 JLINK_ReadReg(FPS13)  returns 0x00000000 (0000ms, 0942ms total)
T12A8 001:885 JLINK_ReadReg(FPS14)  returns 0x00000000 (0000ms, 0942ms total)
T12A8 001:885 JLINK_ReadReg(FPS15)  returns 0x00000000 (0000ms, 0942ms total)
T12A8 001:885 JLINK_ReadReg(FPS16)  returns 0x00000000 (0000ms, 0942ms total)
T0734 001:888 JLINK_ReadMemU32(0xE0001004, 0x0001 Items, ...) -- CPU_ReadMem(4 bytes @ 0xE0001004) -- Data:  CA 5B 00 00  returns 0x01 (0001ms, 0943ms total)
T0734 001:891 JLINK_ReadMem (0x08000578, 0x003C Bytes, ...) -- CPU_ReadMem(128 bytes @ 0x08000540) -- Updating C cache (128 bytes @ 0x08000540) -- Read from C cache (60 bytes @ 0x08000578) -- Data:  10 B5 09 F0 97 F8 FF F7 DA FF 00 20 10 BD 00 00 ...  returns 0x00 (0002ms, 0945ms total)
T12A8 003:115 JLINK_Step() -- Read from C cache (2 bytes @ 0x08000578) -- CPU_WriteMem(8 bytes @ 0x200024F0) -- Simulated  returns 0x00 (0002ms, 0947ms total)
T12A8 003:117 JLINK_ReadReg(R15)  returns 0x0800057A (0000ms, 0947ms total)
T12A8 003:117 JLINK_ReadReg(XPSR)  returns 0x61000000 (0000ms, 0947ms total)
T12A8 003:117 JLINK_ReadReg(R0)  returns 0x20001EF8 (0000ms, 0947ms total)
T12A8 003:117 JLINK_ReadReg(R1)  returns 0x200020F8 (0000ms, 0947ms total)
T12A8 003:117 JLINK_ReadReg(R2)  returns 0x200020F8 (0000ms, 0947ms total)
T12A8 003:117 JLINK_ReadReg(R3)  returns 0x200020F8 (0000ms, 0947ms total)
T12A8 003:117 JLINK_ReadReg(R4)  returns 0x00000000 (0000ms, 0947ms total)
T12A8 003:117 JLINK_ReadReg(R5)  returns 0x20001E98 (0000ms, 0947ms total)
T12A8 003:117 JLINK_ReadReg(R6)  returns 0x00000000 (0000ms, 0947ms total)
T12A8 003:117 JLINK_ReadReg(R7)  returns 0x00000000 (0000ms, 0947ms total)
T12A8 003:117 JLINK_ReadReg(R8)  returns 0x00000000 (0000ms, 0947ms total)
T12A8 003:117 JLINK_ReadReg(R9)  returns 0x00000000 (0000ms, 0947ms total)
T12A8 003:117 JLINK_ReadReg(R10)  returns 0x08010A10 (0000ms, 0947ms total)
T12A8 003:117 JLINK_ReadReg(R11)  returns 0x00000000 (0000ms, 0947ms total)
T12A8 003:117 JLINK_ReadReg(R12)  returns 0x20001ED8 (0000ms, 0947ms total)
T12A8 003:117 JLINK_ReadReg(R13)  returns 0x200024F0 (0000ms, 0947ms total)
T12A8 003:117 JLINK_ReadReg(R14)  returns 0x0800027D (0000ms, 0947ms total)
T12A8 003:117 JLINK_ReadReg(R15)  returns 0x0800057A (0000ms, 0947ms total)
T12A8 003:117 JLINK_ReadReg(XPSR)  returns 0x61000000 (0000ms, 0947ms total)
T12A8 003:117 JLINK_ReadReg(MSP)  returns 0x200024F0 (0000ms, 0947ms total)
T12A8 003:118 JLINK_ReadReg(PSP)  returns 0x00000000 (0000ms, 0947ms total)
T12A8 003:118 JLINK_ReadReg(CFBP)  returns 0x04000000 (0000ms, 0947ms total)
T12A8 003:118 JLINK_ReadReg(FPSCR)  returns 0x03000000 (0000ms, 0947ms total)
T12A8 003:118 JLINK_ReadReg(FPS0)  returns 0x00000000 (0000ms, 0947ms total)
T12A8 003:118 JLINK_ReadReg(FPS1)  returns 0x00000000 (0000ms, 0947ms total)
T12A8 003:118 JLINK_ReadReg(FPS2)  returns 0x00000000 (0000ms, 0947ms total)
T12A8 003:118 JLINK_ReadReg(FPS3)  returns 0x00000000 (0000ms, 0947ms total)
T12A8 003:118 JLINK_ReadReg(FPS4)  returns 0x00000000 (0000ms, 0947ms total)
T12A8 003:118 JLINK_ReadReg(FPS5)  returns 0x00000000 (0000ms, 0947ms total)
T12A8 003:118 JLINK_ReadReg(FPS6)  returns 0x00000000 (0000ms, 0947ms total)
T12A8 003:118 JLINK_ReadReg(FPS7)  returns 0x00000000 (0000ms, 0947ms total)
T12A8 003:118 JLINK_ReadReg(FPS8)  returns 0x00000000 (0000ms, 0947ms total)
T12A8 003:118 JLINK_ReadReg(FPS9)  returns 0x00000000 (0000ms, 0947ms total)
T12A8 003:118 JLINK_ReadReg(FPS10)  returns 0x00000000 (0000ms, 0947ms total)
T12A8 003:118 JLINK_ReadReg(FPS11)  returns 0x00000000 (0000ms, 0947ms total)
T12A8 003:118 JLINK_ReadReg(FPS12)  returns 0x00000000 (0000ms, 0947ms total)
T12A8 003:118 JLINK_ReadReg(FPS13)  returns 0x00000000 (0000ms, 0947ms total)
T12A8 003:118 JLINK_ReadReg(FPS14)  returns 0x00000000 (0000ms, 0947ms total)
T12A8 003:118 JLINK_ReadReg(FPS15)  returns 0x00000000 (0000ms, 0947ms total)
T12A8 003:118 JLINK_ReadReg(FPS16)  returns 0x00000000 (0000ms, 0947ms total)
T12A8 003:118 JLINK_ReadReg(FPS17)  returns 0x00000000 (0000ms, 0947ms total)
T12A8 003:118 JLINK_ReadReg(FPS18)  returns 0x00000000 (0000ms, 0947ms total)
T12A8 003:118 JLINK_ReadReg(FPS19)  returns 0x00000000 (0000ms, 0947ms total)
T12A8 003:118 JLINK_ReadReg(FPS20)  returns 0x00000000 (0000ms, 0947ms total)
T12A8 003:118 JLINK_ReadReg(FPS31)  returns 0x00000000 (0000ms, 0947ms total)
T12A8 003:118 JLINK_ReadReg(FPS7)  returns 0x00000000 (0000ms, 0947ms total)
T12A8 003:118 JLINK_ReadReg(FPS8)  returns 0x00000000 (0000ms, 0947ms total)
T12A8 003:118 JLINK_ReadReg(FPS9)  returns 0x00000000 (0000ms, 0947ms total)
T12A8 003:118 JLINK_ReadReg(FPS10)  returns 0x00000000 (0000ms, 0947ms total)
T12A8 003:118 JLINK_ReadReg(FPS11)  returns 0x00000000 (0000ms, 0947ms total)
T12A8 003:118 JLINK_ReadReg(FPS12)  returns 0x00000000 (0000ms, 0947ms total)
T12A8 003:118 JLINK_ReadReg(FPS13)  returns 0x00000000 (0000ms, 0947ms total)
T12A8 003:118 JLINK_ReadReg(FPS14)  returns 0x00000000 (0000ms, 0947ms total)
T12A8 003:118 JLINK_ReadReg(FPS15)  returns 0x00000000 (0000ms, 0947ms total)
T12A8 003:118 JLINK_ReadReg(FPS16)  returns 0x00000000 (0000ms, 0947ms total)
T0734 003:119 JLINK_ReadMem (0x200024F4, 0x0004 Bytes, ...) -- CPU_ReadMem(64 bytes @ 0x200024C0) -- Updating C cache (64 bytes @ 0x200024C0) -- Read from C cache (4 bytes @ 0x200024F4) -- Data:  7D 02 00 08  returns 0x00 (0001ms, 0948ms total)
T0734 003:120 JLINK_ReadMemU32(0xE0001004, 0x0001 Items, ...) -- Data:  CA 5B 00 00  returns 0x01 (0000ms, 0948ms total)
T0734 003:123 JLINK_ReadMem (0x0800057A, 0x0002 Bytes, ...) -- Read from C cache (2 bytes @ 0x0800057A) -- Data:  09 F0  returns 0x00 (0001ms, 0949ms total)
T0734 003:124 JLINK_ReadMem (0x0800057C, 0x003C Bytes, ...) -- Read from C cache (60 bytes @ 0x0800057C) -- Data:  97 F8 FF F7 DA FF 00 20 10 BD 00 00 0A 0D 20 57 ...  returns 0x00 (0000ms, 0949ms total)
T12A8 004:075 JLINK_SetBPEx(Addr = 0x0800057E, Type = 0xFFFFFFF2)  returns 0x00000002 (0000ms, 0949ms total)
T12A8 004:075 JLINK_Go() -- CPU_WriteMem(4 bytes @ 0xE0002008) (0003ms, 0952ms total)
T12A8 004:178 JLINK_IsHalted()  returns TRUE (0004ms, 0956ms total)
T12A8 004:182 JLINK_Halt()  returns 0x00 (0000ms, 0952ms total)
T12A8 004:182 JLINK_IsHalted()  returns TRUE (0000ms, 0952ms total)
T12A8 004:182 JLINK_IsHalted()  returns TRUE (0000ms, 0952ms total)
T12A8 004:182 JLINK_IsHalted()  returns TRUE (0000ms, 0952ms total)
T12A8 004:182 JLINK_ReadReg(R15)  returns 0x0800057E (0000ms, 0952ms total)
T12A8 004:182 JLINK_ReadReg(XPSR)  returns 0x61000000 (0000ms, 0952ms total)
T12A8 004:182 JLINK_ClrBPEx(BPHandle = 0x00000002)  returns 0x00 (0000ms, 0952ms total)
T12A8 004:182 JLINK_ReadMemU32(0xE000ED30, 0x0001 Items, ...) -- CPU_ReadMem(4 bytes @ 0xE000ED30) -- Data:  03 00 00 00  returns 0x01 (0000ms, 0952ms total)
T12A8 004:182 JLINK_ReadMemU32(0xE0001028, 0x0001 Items, ...) -- CPU_ReadMem(4 bytes @ 0xE0001028) -- Data:  00 00 00 00  returns 0x01 (0001ms, 0953ms total)
T12A8 004:183 JLINK_ReadMemU32(0xE0001038, 0x0001 Items, ...) -- CPU_ReadMem(4 bytes @ 0xE0001038) -- Data:  00 02 00 00  returns 0x01 (0001ms, 0954ms total)
T12A8 004:184 JLINK_ReadMemU32(0xE0001048, 0x0001 Items, ...) -- CPU_ReadMem(4 bytes @ 0xE0001048) -- Data:  00 00 00 00  returns 0x01 (0000ms, 0954ms total)
T12A8 004:184 JLINK_ReadMemU32(0xE0001058, 0x0001 Items, ...) -- CPU_ReadMem(4 bytes @ 0xE0001058) -- Data:  00 00 00 00  returns 0x01 (0001ms, 0955ms total)
T12A8 004:185 JLINK_ReadReg(R0)  returns 0x00000000 (0000ms, 0955ms total)
T12A8 004:185 JLINK_ReadReg(R1)  returns 0x200020F8 (0000ms, 0955ms total)
T12A8 004:185 JLINK_ReadReg(R2)  returns 0x200020F8 (0000ms, 0955ms total)
T12A8 004:185 JLINK_ReadReg(R3)  returns 0x200020F8 (0000ms, 0955ms total)
T12A8 004:185 JLINK_ReadReg(R4)  returns 0x00000000 (0000ms, 0955ms total)
T12A8 004:185 JLINK_ReadReg(R5)  returns 0x20001E98 (0000ms, 0955ms total)
T12A8 004:185 JLINK_ReadReg(R6)  returns 0x00000000 (0000ms, 0955ms total)
T12A8 004:185 JLINK_ReadReg(R7)  returns 0x00000000 (0000ms, 0955ms total)
T12A8 004:185 JLINK_ReadReg(R8)  returns 0x00000000 (0000ms, 0955ms total)
T12A8 004:185 JLINK_ReadReg(R9)  returns 0x00000000 (0000ms, 0955ms total)
T12A8 004:185 JLINK_ReadReg(R10)  returns 0x08010A10 (0000ms, 0955ms total)
T12A8 004:185 JLINK_ReadReg(R11)  returns 0x00000000 (0000ms, 0955ms total)
T12A8 004:185 JLINK_ReadReg(R12)  returns 0x20001ED8 (0000ms, 0955ms total)
T12A8 004:185 JLINK_ReadReg(R13)  returns 0x200024F0 (0000ms, 0955ms total)
T12A8 004:185 JLINK_ReadReg(R14)  returns 0x0800057F (0000ms, 0955ms total)
T12A8 004:185 JLINK_ReadReg(R15)  returns 0x0800057E (0000ms, 0955ms total)
T12A8 004:185 JLINK_ReadReg(XPSR)  returns 0x61000000 (0000ms, 0955ms total)
T12A8 004:185 JLINK_ReadReg(MSP)  returns 0x200024F0 (0000ms, 0955ms total)
T12A8 004:185 JLINK_ReadReg(PSP)  returns 0x00000000 (0000ms, 0955ms total)
T12A8 004:185 JLINK_ReadReg(CFBP)  returns 0x04000001 (0000ms, 0955ms total)
T12A8 004:185 JLINK_ReadReg(FPSCR)  returns 0x03000000 (0006ms, 0961ms total)
T12A8 004:191 JLINK_ReadReg(FPS0)  returns 0x00000000 (0000ms, 0961ms total)
T12A8 004:191 JLINK_ReadReg(FPS1)  returns 0x00000000 (0000ms, 0961ms total)
T12A8 004:191 JLINK_ReadReg(FPS2)  returns 0x00000000 (0000ms, 0961ms total)
T12A8 004:191 JLINK_ReadReg(FPS3)  returns 0x00000000 (0000ms, 0961ms total)
T12A8 004:191 JLINK_ReadReg(FPS4)  returns 0x00000000 (0000ms, 0961ms total)
T12A8 004:191 JLINK_ReadReg(FPS5)  returns 0x00000000 (0000ms, 0961ms total)
T12A8 004:191 JLINK_ReadReg(FPS6)  returns 0x00000000 (0000ms, 0961ms total)
T12A8 004:191 JLINK_ReadReg(FPS7)  returns 0x00000000 (0000ms, 0961ms total)
T12A8 004:191 JLINK_ReadReg(FPS8)  returns 0x00000000 (0000ms, 0961ms total)
T12A8 004:191 JLINK_ReadReg(FPS9)  returns 0x00000000 (0000ms, 0961ms total)
T12A8 004:191 JLINK_ReadReg(FPS10)  returns 0x00000000 (0000ms, 0961ms total)
T12A8 004:191 JLINK_ReadReg(FPS11)  returns 0x00000000 (0000ms, 0961ms total)
T12A8 004:191 JLINK_ReadReg(FPS12)  returns 0x00000000 (0000ms, 0961ms total)
T12A8 004:191 JLINK_ReadReg(FPS13)  returns 0x00000000 (0000ms, 0961ms total)
T12A8 004:191 JLINK_ReadReg(FPS14)  returns 0x00000000 (0000ms, 0961ms total)
T12A8 004:191 JLINK_ReadReg(FPS15)  returns 0x00000000 (0000ms, 0961ms total)
T12A8 004:191 JLINK_ReadReg(FPS16)  returns 0x00000000 (0000ms, 0961ms total)
T12A8 004:191 JLINK_ReadReg(FPS17)  returns 0x00000000 (0000ms, 0961ms total)
T12A8 004:191 JLINK_ReadReg(FPS18)  returns 0x00000000 (0000ms, 0961ms total)
T12A8 004:191 JLINK_ReadReg(FPS19)  returns 0x00000000 (0000ms, 0961ms total)
T12A8 004:191 JLINK_ReadReg(FPS20)  returns 0x00000000 (0000ms, 0961ms total)
T12A8 004:191 JLINK_ReadReg(FPS31)  returns 0x00000000 (0000ms, 0961ms total)
T12A8 004:191 JLINK_ReadReg(FPS7)  returns 0x00000000 (0000ms, 0961ms total)
T12A8 004:191 JLINK_ReadReg(FPS8)  returns 0x00000000 (0000ms, 0961ms total)
T12A8 004:191 JLINK_ReadReg(FPS9)  returns 0x00000000 (0000ms, 0961ms total)
T12A8 004:191 JLINK_ReadReg(FPS10)  returns 0x00000000 (0000ms, 0961ms total)
T12A8 004:191 JLINK_ReadReg(FPS11)  returns 0x00000000 (0000ms, 0961ms total)
T12A8 004:191 JLINK_ReadReg(FPS12)  returns 0x00000000 (0000ms, 0961ms total)
T12A8 004:191 JLINK_ReadReg(FPS13)  returns 0x00000000 (0000ms, 0961ms total)
T12A8 004:191 JLINK_ReadReg(FPS14)  returns 0x00000000 (0000ms, 0961ms total)
T12A8 004:191 JLINK_ReadReg(FPS15)  returns 0x00000000 (0000ms, 0961ms total)
T12A8 004:191 JLINK_ReadReg(FPS16)  returns 0x00000000 (0000ms, 0961ms total)
T0734 004:192 JLINK_ReadMem (0x200024F4, 0x0004 Bytes, ...) -- CPU_ReadMem(64 bytes @ 0x200024C0) -- Updating C cache (64 bytes @ 0x200024C0) -- Read from C cache (4 bytes @ 0x200024F4) -- Data:  7D 02 00 08  returns 0x00 (0001ms, 0962ms total)
T0734 004:193 JLINK_ReadMemU32(0xE0001004, 0x0001 Items, ...) -- CPU_ReadMem(4 bytes @ 0xE0001004) -- Data:  D6 5B 00 00  returns 0x01 (0001ms, 0963ms total)
T0734 004:196 JLINK_ReadMem (0x0800057E, 0x0002 Bytes, ...) -- CPU_ReadMem(64 bytes @ 0x08000540) -- Updating C cache (64 bytes @ 0x08000540) -- Read from C cache (2 bytes @ 0x0800057E) -- Data:  FF F7  returns 0x00 (0001ms, 0964ms total)
T0734 004:197 JLINK_ReadMem (0x08000580, 0x003C Bytes, ...) -- CPU_ReadMem(64 bytes @ 0x08000580) -- Updating C cache (64 bytes @ 0x08000580) -- Read from C cache (60 bytes @ 0x08000580) -- Data:  DA FF 00 20 10 BD 00 00 0A 0D 20 57 72 6F 6E 67 ...  returns 0x00 (0002ms, 0966ms total)
T12A8 005:435 JLINK_Step() -- Read from C cache (2 bytes @ 0x0800057E) -- Read from C cache (2 bytes @ 0x08000580) -- Simulated  returns 0x00 (0002ms, 0968ms total)
T12A8 005:437 JLINK_ReadReg(R15)  returns 0x08000536 (0000ms, 0968ms total)
T12A8 005:437 JLINK_ReadReg(XPSR)  returns 0x61000000 (0000ms, 0968ms total)
T12A8 005:437 JLINK_ReadReg(R0)  returns 0x00000000 (0000ms, 0968ms total)
T12A8 005:437 JLINK_ReadReg(R1)  returns 0x200020F8 (0000ms, 0968ms total)
T12A8 005:437 JLINK_ReadReg(R2)  returns 0x200020F8 (0000ms, 0968ms total)
T12A8 005:437 JLINK_ReadReg(R3)  returns 0x200020F8 (0000ms, 0968ms total)
T12A8 005:437 JLINK_ReadReg(R4)  returns 0x00000000 (0000ms, 0968ms total)
T12A8 005:437 JLINK_ReadReg(R5)  returns 0x20001E98 (0000ms, 0968ms total)
T12A8 005:437 JLINK_ReadReg(R6)  returns 0x00000000 (0000ms, 0968ms total)
T12A8 005:437 JLINK_ReadReg(R7)  returns 0x00000000 (0000ms, 0968ms total)
T12A8 005:437 JLINK_ReadReg(R8)  returns 0x00000000 (0000ms, 0968ms total)
T12A8 005:437 JLINK_ReadReg(R9)  returns 0x00000000 (0000ms, 0968ms total)
T12A8 005:437 JLINK_ReadReg(R10)  returns 0x08010A10 (0000ms, 0968ms total)
T12A8 005:437 JLINK_ReadReg(R11)  returns 0x00000000 (0000ms, 0968ms total)
T12A8 005:437 JLINK_ReadReg(R12)  returns 0x20001ED8 (0000ms, 0968ms total)
T12A8 005:437 JLINK_ReadReg(R13)  returns 0x200024F0 (0000ms, 0968ms total)
T12A8 005:437 JLINK_ReadReg(R14)  returns 0x08000583 (0000ms, 0968ms total)
T12A8 005:437 JLINK_ReadReg(R15)  returns 0x08000536 (0000ms, 0968ms total)
T12A8 005:437 JLINK_ReadReg(XPSR)  returns 0x61000000 (0000ms, 0968ms total)
T12A8 005:437 JLINK_ReadReg(MSP)  returns 0x200024F0 (0000ms, 0968ms total)
T12A8 005:437 JLINK_ReadReg(PSP)  returns 0x00000000 (0000ms, 0968ms total)
T12A8 005:437 JLINK_ReadReg(CFBP)  returns 0x04000001 (0000ms, 0968ms total)
T12A8 005:437 JLINK_ReadReg(FPSCR)  returns 0x03000000 (0000ms, 0968ms total)
T12A8 005:437 JLINK_ReadReg(FPS0)  returns 0x00000000 (0000ms, 0968ms total)
T12A8 005:437 JLINK_ReadReg(FPS1)  returns 0x00000000 (0000ms, 0968ms total)
T12A8 005:437 JLINK_ReadReg(FPS2)  returns 0x00000000 (0000ms, 0968ms total)
T12A8 005:437 JLINK_ReadReg(FPS3)  returns 0x00000000 (0000ms, 0968ms total)
T12A8 005:437 JLINK_ReadReg(FPS4)  returns 0x00000000 (0000ms, 0968ms total)
T12A8 005:437 JLINK_ReadReg(FPS5)  returns 0x00000000 (0000ms, 0968ms total)
T12A8 005:437 JLINK_ReadReg(FPS6)  returns 0x00000000 (0000ms, 0968ms total)
T12A8 005:437 JLINK_ReadReg(FPS7)  returns 0x00000000 (0000ms, 0968ms total)
T12A8 005:437 JLINK_ReadReg(FPS8)  returns 0x00000000 (0000ms, 0968ms total)
T12A8 005:437 JLINK_ReadReg(FPS9)  returns 0x00000000 (0000ms, 0968ms total)
T12A8 005:437 JLINK_ReadReg(FPS10)  returns 0x00000000 (0000ms, 0968ms total)
T12A8 005:437 JLINK_ReadReg(FPS11)  returns 0x00000000 (0000ms, 0968ms total)
T12A8 005:437 JLINK_ReadReg(FPS12)  returns 0x00000000 (0000ms, 0968ms total)
T12A8 005:437 JLINK_ReadReg(FPS13)  returns 0x00000000 (0000ms, 0968ms total)
T12A8 005:437 JLINK_ReadReg(FPS14)  returns 0x00000000 (0000ms, 0968ms total)
T12A8 005:437 JLINK_ReadReg(FPS15)  returns 0x00000000 (0000ms, 0968ms total)
T12A8 005:437 JLINK_ReadReg(FPS16)  returns 0x00000000 (0000ms, 0968ms total)
T12A8 005:437 JLINK_ReadReg(FPS17)  returns 0x00000000 (0000ms, 0968ms total)
T12A8 005:437 JLINK_ReadReg(FPS18)  returns 0x00000000 (0000ms, 0968ms total)
T12A8 005:437 JLINK_ReadReg(FPS19)  returns 0x00000000 (0000ms, 0968ms total)
T12A8 005:437 JLINK_ReadReg(FPS20)  returns 0x00000000 (0000ms, 0968ms total)
T12A8 005:437 JLINK_ReadReg(FPS31)  returns 0x00000000 (0000ms, 0968ms total)
T12A8 005:437 JLINK_ReadReg(FPS7)  returns 0x00000000 (0000ms, 0968ms total)
T12A8 005:437 JLINK_ReadReg(FPS8)  returns 0x00000000 (0000ms, 0968ms total)
T12A8 005:437 JLINK_ReadReg(FPS9)  returns 0x00000000 (0000ms, 0968ms total)
T12A8 005:437 JLINK_ReadReg(FPS10)  returns 0x00000000 (0000ms, 0968ms total)
T12A8 005:437 JLINK_ReadReg(FPS11)  returns 0x00000000 (0000ms, 0968ms total)
T12A8 005:437 JLINK_ReadReg(FPS12)  returns 0x00000000 (0000ms, 0968ms total)
T12A8 005:437 JLINK_ReadReg(FPS13)  returns 0x00000000 (0000ms, 0968ms total)
T12A8 005:437 JLINK_ReadReg(FPS14)  returns 0x00000000 (0000ms, 0968ms total)
T12A8 005:437 JLINK_ReadReg(FPS15)  returns 0x00000000 (0000ms, 0968ms total)
T12A8 005:437 JLINK_ReadReg(FPS16)  returns 0x00000000 (0000ms, 0968ms total)
T0734 005:439 JLINK_ReadMem (0x200024F4, 0x0004 Bytes, ...) -- Read from C cache (4 bytes @ 0x200024F4) -- Data:  7D 02 00 08  returns 0x00 (0000ms, 0968ms total)
T0734 005:442 JLINK_ReadMemU32(0xE0001004, 0x0001 Items, ...) -- Data:  D6 5B 00 00  returns 0x01 (0000ms, 0968ms total)
T0734 005:445 JLINK_ReadMem (0x08000536, 0x0002 Bytes, ...) -- CPU_ReadMem(64 bytes @ 0x08000500) -- Updating C cache (64 bytes @ 0x08000500) -- Read from C cache (2 bytes @ 0x08000536) -- Data:  10 B5  returns 0x00 (0001ms, 0969ms total)
T0734 005:446 JLINK_ReadMem (0x08000538, 0x003C Bytes, ...) -- Read from C cache (60 bytes @ 0x08000538) -- Data:  00 F0 9A F8 06 F0 12 FF 04 F0 14 FB 07 F0 F9 FE ...  returns 0x00 (0000ms, 0969ms total)
T12A8 006:571 JLINK_Step() -- Read from C cache (2 bytes @ 0x08000536) -- CPU_WriteMem(8 bytes @ 0x200024E8) -- Simulated  returns 0x00 (0002ms, 0971ms total)
T12A8 006:573 JLINK_ReadReg(R15)  returns 0x08000538 (0000ms, 0971ms total)
T12A8 006:573 JLINK_ReadReg(XPSR)  returns 0x61000000 (0000ms, 0971ms total)
T12A8 006:573 JLINK_ReadReg(R0)  returns 0x00000000 (0000ms, 0971ms total)
T12A8 006:573 JLINK_ReadReg(R1)  returns 0x200020F8 (0000ms, 0971ms total)
T12A8 006:573 JLINK_ReadReg(R2)  returns 0x200020F8 (0000ms, 0971ms total)
T12A8 006:573 JLINK_ReadReg(R3)  returns 0x200020F8 (0000ms, 0971ms total)
T12A8 006:573 JLINK_ReadReg(R4)  returns 0x00000000 (0000ms, 0971ms total)
T12A8 006:573 JLINK_ReadReg(R5)  returns 0x20001E98 (0000ms, 0971ms total)
T12A8 006:573 JLINK_ReadReg(R6)  returns 0x00000000 (0000ms, 0971ms total)
T12A8 006:573 JLINK_ReadReg(R7)  returns 0x00000000 (0000ms, 0971ms total)
T12A8 006:573 JLINK_ReadReg(R8)  returns 0x00000000 (0000ms, 0971ms total)
T12A8 006:573 JLINK_ReadReg(R9)  returns 0x00000000 (0000ms, 0971ms total)
T12A8 006:573 JLINK_ReadReg(R10)  returns 0x08010A10 (0000ms, 0971ms total)
T12A8 006:573 JLINK_ReadReg(R11)  returns 0x00000000 (0000ms, 0971ms total)
T12A8 006:573 JLINK_ReadReg(R12)  returns 0x20001ED8 (0000ms, 0971ms total)
T12A8 006:573 JLINK_ReadReg(R13)  returns 0x200024E8 (0000ms, 0971ms total)
T12A8 006:573 JLINK_ReadReg(R14)  returns 0x08000583 (0000ms, 0971ms total)
T12A8 006:573 JLINK_ReadReg(R15)  returns 0x08000538 (0000ms, 0971ms total)
T12A8 006:573 JLINK_ReadReg(XPSR)  returns 0x61000000 (0000ms, 0971ms total)
T12A8 006:573 JLINK_ReadReg(MSP)  returns 0x200024E8 (0000ms, 0971ms total)
T12A8 006:573 JLINK_ReadReg(PSP)  returns 0x00000000 (0000ms, 0971ms total)
T12A8 006:573 JLINK_ReadReg(CFBP)  returns 0x04000001 (0000ms, 0971ms total)
T12A8 006:573 JLINK_ReadReg(FPSCR)  returns 0x03000000 (0000ms, 0971ms total)
T12A8 006:573 JLINK_ReadReg(FPS0)  returns 0x00000000 (0000ms, 0971ms total)
T12A8 006:573 JLINK_ReadReg(FPS1)  returns 0x00000000 (0000ms, 0971ms total)
T12A8 006:573 JLINK_ReadReg(FPS2)  returns 0x00000000 (0000ms, 0971ms total)
T12A8 006:573 JLINK_ReadReg(FPS3)  returns 0x00000000 (0000ms, 0971ms total)
T12A8 006:573 JLINK_ReadReg(FPS4)  returns 0x00000000 (0000ms, 0971ms total)
T12A8 006:573 JLINK_ReadReg(FPS5)  returns 0x00000000 (0000ms, 0971ms total)
T12A8 006:573 JLINK_ReadReg(FPS6)  returns 0x00000000 (0000ms, 0971ms total)
T12A8 006:573 JLINK_ReadReg(FPS7)  returns 0x00000000 (0000ms, 0971ms total)
T12A8 006:573 JLINK_ReadReg(FPS8)  returns 0x00000000 (0000ms, 0971ms total)
T12A8 006:573 JLINK_ReadReg(FPS9)  returns 0x00000000 (0000ms, 0971ms total)
T12A8 006:573 JLINK_ReadReg(FPS10)  returns 0x00000000 (0000ms, 0971ms total)
T12A8 006:573 JLINK_ReadReg(FPS11)  returns 0x00000000 (0000ms, 0971ms total)
T12A8 006:573 JLINK_ReadReg(FPS12)  returns 0x00000000 (0000ms, 0971ms total)
T12A8 006:573 JLINK_ReadReg(FPS13)  returns 0x00000000 (0000ms, 0971ms total)
T12A8 006:574 JLINK_ReadReg(FPS14)  returns 0x00000000 (0000ms, 0971ms total)
T12A8 006:574 JLINK_ReadReg(FPS15)  returns 0x00000000 (0000ms, 0971ms total)
T12A8 006:574 JLINK_ReadReg(FPS16)  returns 0x00000000 (0000ms, 0971ms total)
T12A8 006:574 JLINK_ReadReg(FPS17)  returns 0x00000000 (0000ms, 0971ms total)
T12A8 006:574 JLINK_ReadReg(FPS18)  returns 0x00000000 (0000ms, 0971ms total)
T12A8 006:574 JLINK_ReadReg(FPS19)  returns 0x00000000 (0000ms, 0971ms total)
T12A8 006:574 JLINK_ReadReg(FPS20)  returns 0x00000000 (0000ms, 0971ms total)
T12A8 006:574 JLINK_ReadReg(FPS31)  returns 0x00000000 (0000ms, 0971ms total)
T12A8 006:574 JLINK_ReadReg(FPS7)  returns 0x00000000 (0000ms, 0971ms total)
T12A8 006:574 JLINK_ReadReg(FPS8)  returns 0x00000000 (0000ms, 0971ms total)
T12A8 006:574 JLINK_ReadReg(FPS9)  returns 0x00000000 (0000ms, 0971ms total)
T12A8 006:574 JLINK_ReadReg(FPS10)  returns 0x00000000 (0000ms, 0971ms total)
T12A8 006:574 JLINK_ReadReg(FPS11)  returns 0x00000000 (0000ms, 0971ms total)
T12A8 006:574 JLINK_ReadReg(FPS12)  returns 0x00000000 (0000ms, 0971ms total)
T12A8 006:574 JLINK_ReadReg(FPS13)  returns 0x00000000 (0000ms, 0971ms total)
T12A8 006:574 JLINK_ReadReg(FPS14)  returns 0x00000000 (0000ms, 0971ms total)
T12A8 006:574 JLINK_ReadReg(FPS15)  returns 0x00000000 (0000ms, 0971ms total)
T12A8 006:574 JLINK_ReadReg(FPS16)  returns 0x00000000 (0000ms, 0971ms total)
T0734 006:575 JLINK_ReadMem (0x200024EC, 0x0004 Bytes, ...) -- CPU_ReadMem(64 bytes @ 0x200024C0) -- Updating C cache (64 bytes @ 0x200024C0) -- Read from C cache (4 bytes @ 0x200024EC) -- Data:  83 05 00 08  returns 0x00 (0002ms, 0973ms total)
T0734 006:577 JLINK_ReadMem (0x200024E8, 0x0004 Bytes, ...) -- Read from C cache (4 bytes @ 0x200024E8) -- Data:  00 00 00 00  returns 0x00 (0000ms, 0973ms total)
T0734 006:577 JLINK_ReadMem (0x200024F4, 0x0004 Bytes, ...) -- Read from C cache (4 bytes @ 0x200024F4) -- Data:  7D 02 00 08  returns 0x00 (0000ms, 0973ms total)
T0734 006:577 JLINK_ReadMemU32(0xE0001004, 0x0001 Items, ...) -- Data:  D6 5B 00 00  returns 0x01 (0000ms, 0973ms total)
T0734 006:580 JLINK_ReadMem (0x08000538, 0x003C Bytes, ...) -- Read from C cache (60 bytes @ 0x08000538) -- Data:  00 F0 9A F8 06 F0 12 FF 04 F0 14 FB 07 F0 F9 FE ...  returns 0x00 (0000ms, 0973ms total)
T12A8 008:900 JLINK_Step() -- Read from C cache (2 bytes @ 0x08000538) -- Read from C cache (2 bytes @ 0x0800053A) -- Simulated  returns 0x00 (0001ms, 0974ms total)
T12A8 008:901 JLINK_ReadReg(R15)  returns 0x08000670 (0000ms, 0974ms total)
T12A8 008:901 JLINK_ReadReg(XPSR)  returns 0x61000000 (0000ms, 0974ms total)
T12A8 008:902 JLINK_ReadReg(R0)  returns 0x00000000 (0000ms, 0974ms total)
T12A8 008:902 JLINK_ReadReg(R1)  returns 0x200020F8 (0000ms, 0974ms total)
T12A8 008:902 JLINK_ReadReg(R2)  returns 0x200020F8 (0000ms, 0974ms total)
T12A8 008:902 JLINK_ReadReg(R3)  returns 0x200020F8 (0000ms, 0974ms total)
T12A8 008:902 JLINK_ReadReg(R4)  returns 0x00000000 (0000ms, 0974ms total)
T12A8 008:902 JLINK_ReadReg(R5)  returns 0x20001E98 (0000ms, 0974ms total)
T12A8 008:902 JLINK_ReadReg(R6)  returns 0x00000000 (0000ms, 0974ms total)
T12A8 008:902 JLINK_ReadReg(R7)  returns 0x00000000 (0000ms, 0974ms total)
T12A8 008:902 JLINK_ReadReg(R8)  returns 0x00000000 (0000ms, 0974ms total)
T12A8 008:902 JLINK_ReadReg(R9)  returns 0x00000000 (0000ms, 0974ms total)
T12A8 008:902 JLINK_ReadReg(R10)  returns 0x08010A10 (0000ms, 0974ms total)
T12A8 008:902 JLINK_ReadReg(R11)  returns 0x00000000 (0000ms, 0974ms total)
T12A8 008:902 JLINK_ReadReg(R12)  returns 0x20001ED8 (0000ms, 0974ms total)
T12A8 008:902 JLINK_ReadReg(R13)  returns 0x200024E8 (0000ms, 0974ms total)
T12A8 008:902 JLINK_ReadReg(R14)  returns 0x0800053D (0000ms, 0974ms total)
T12A8 008:902 JLINK_ReadReg(R15)  returns 0x08000670 (0000ms, 0974ms total)
T12A8 008:902 JLINK_ReadReg(XPSR)  returns 0x61000000 (0000ms, 0974ms total)
T12A8 008:902 JLINK_ReadReg(MSP)  returns 0x200024E8 (0000ms, 0974ms total)
T12A8 008:902 JLINK_ReadReg(PSP)  returns 0x00000000 (0000ms, 0974ms total)
T12A8 008:902 JLINK_ReadReg(CFBP)  returns 0x04000001 (0000ms, 0974ms total)
T12A8 008:902 JLINK_ReadReg(FPSCR)  returns 0x03000000 (0000ms, 0974ms total)
T12A8 008:902 JLINK_ReadReg(FPS0)  returns 0x00000000 (0000ms, 0974ms total)
T12A8 008:902 JLINK_ReadReg(FPS1)  returns 0x00000000 (0000ms, 0974ms total)
T12A8 008:902 JLINK_ReadReg(FPS2)  returns 0x00000000 (0000ms, 0974ms total)
T12A8 008:902 JLINK_ReadReg(FPS3)  returns 0x00000000 (0000ms, 0974ms total)
T12A8 008:902 JLINK_ReadReg(FPS4)  returns 0x00000000 (0000ms, 0974ms total)
T12A8 008:902 JLINK_ReadReg(FPS5)  returns 0x00000000 (0000ms, 0974ms total)
T12A8 008:902 JLINK_ReadReg(FPS6)  returns 0x00000000 (0000ms, 0974ms total)
T12A8 008:902 JLINK_ReadReg(FPS7)  returns 0x00000000 (0000ms, 0974ms total)
T12A8 008:902 JLINK_ReadReg(FPS8)  returns 0x00000000 (0000ms, 0974ms total)
T12A8 008:902 JLINK_ReadReg(FPS9)  returns 0x00000000 (0000ms, 0974ms total)
T12A8 008:902 JLINK_ReadReg(FPS10)  returns 0x00000000 (0000ms, 0974ms total)
T12A8 008:902 JLINK_ReadReg(FPS11)  returns 0x00000000 (0000ms, 0974ms total)
T12A8 008:902 JLINK_ReadReg(FPS12)  returns 0x00000000 (0000ms, 0974ms total)
T12A8 008:902 JLINK_ReadReg(FPS13)  returns 0x00000000 (0000ms, 0974ms total)
T12A8 008:902 JLINK_ReadReg(FPS14)  returns 0x00000000 (0000ms, 0974ms total)
T12A8 008:902 JLINK_ReadReg(FPS15)  returns 0x00000000 (0000ms, 0974ms total)
T12A8 008:902 JLINK_ReadReg(FPS16)  returns 0x00000000 (0000ms, 0974ms total)
T12A8 008:902 JLINK_ReadReg(FPS17)  returns 0x00000000 (0000ms, 0974ms total)
T12A8 008:902 JLINK_ReadReg(FPS18)  returns 0x00000000 (0000ms, 0974ms total)
T12A8 008:902 JLINK_ReadReg(FPS19)  returns 0x00000000 (0000ms, 0974ms total)
T12A8 008:902 JLINK_ReadReg(FPS20)  returns 0x00000000 (0000ms, 0974ms total)
T12A8 008:902 JLINK_ReadReg(FPS31)  returns 0x00000000 (0000ms, 0974ms total)
T12A8 008:902 JLINK_ReadReg(FPS7)  returns 0x00000000 (0000ms, 0974ms total)
T12A8 008:902 JLINK_ReadReg(FPS8)  returns 0x00000000 (0000ms, 0974ms total)
T12A8 008:902 JLINK_ReadReg(FPS9)  returns 0x00000000 (0000ms, 0974ms total)
T12A8 008:902 JLINK_ReadReg(FPS10)  returns 0x00000000 (0000ms, 0974ms total)
T12A8 008:902 JLINK_ReadReg(FPS11)  returns 0x00000000 (0000ms, 0974ms total)
T12A8 008:902 JLINK_ReadReg(FPS12)  returns 0x00000000 (0000ms, 0974ms total)
T12A8 008:902 JLINK_ReadReg(FPS13)  returns 0x00000000 (0000ms, 0974ms total)
T12A8 008:902 JLINK_ReadReg(FPS14)  returns 0x00000000 (0000ms, 0974ms total)
T12A8 008:902 JLINK_ReadReg(FPS15)  returns 0x00000000 (0000ms, 0974ms total)
T12A8 008:902 JLINK_ReadReg(FPS16)  returns 0x00000000 (0000ms, 0974ms total)
T0734 008:904 JLINK_ReadMem (0x200024EC, 0x0004 Bytes, ...) -- Read from C cache (4 bytes @ 0x200024EC) -- Data:  83 05 00 08  returns 0x00 (0000ms, 0974ms total)
T0734 008:904 JLINK_ReadMem (0x200024E8, 0x0004 Bytes, ...) -- Read from C cache (4 bytes @ 0x200024E8) -- Data:  00 00 00 00  returns 0x00 (0000ms, 0974ms total)
T0734 008:904 JLINK_ReadMem (0x200024F4, 0x0004 Bytes, ...) -- Read from C cache (4 bytes @ 0x200024F4) -- Data:  7D 02 00 08  returns 0x00 (0000ms, 0974ms total)
T0734 008:907 JLINK_ReadMemU32(0xE0001004, 0x0001 Items, ...) -- Data:  D6 5B 00 00  returns 0x01 (0000ms, 0974ms total)
T0734 008:910 JLINK_ReadMem (0x08000670, 0x003C Bytes, ...) -- CPU_ReadMem(128 bytes @ 0x08000640) -- Updating C cache (128 bytes @ 0x08000640) -- Read from C cache (60 bytes @ 0x08000670) -- Data:  10 B5 FF F7 B9 FF FF F7 C2 FF 00 F0 92 FB 04 A0 ...  returns 0x00 (0002ms, 0976ms total)
T12A8 009:821 JLINK_Step() -- Read from C cache (2 bytes @ 0x08000670) -- CPU_WriteMem(8 bytes @ 0x200024E0) -- Simulated  returns 0x00 (0001ms, 0977ms total)
T12A8 009:822 JLINK_ReadReg(R15)  returns 0x08000672 (0000ms, 0977ms total)
T12A8 009:822 JLINK_ReadReg(XPSR)  returns 0x61000000 (0000ms, 0977ms total)
T12A8 009:822 JLINK_ReadReg(R0)  returns 0x00000000 (0000ms, 0977ms total)
T12A8 009:822 JLINK_ReadReg(R1)  returns 0x200020F8 (0000ms, 0977ms total)
T12A8 009:822 JLINK_ReadReg(R2)  returns 0x200020F8 (0000ms, 0977ms total)
T12A8 009:822 JLINK_ReadReg(R3)  returns 0x200020F8 (0000ms, 0977ms total)
T12A8 009:822 JLINK_ReadReg(R4)  returns 0x00000000 (0000ms, 0977ms total)
T12A8 009:822 JLINK_ReadReg(R5)  returns 0x20001E98 (0000ms, 0977ms total)
T12A8 009:822 JLINK_ReadReg(R6)  returns 0x00000000 (0000ms, 0977ms total)
T12A8 009:822 JLINK_ReadReg(R7)  returns 0x00000000 (0000ms, 0977ms total)
T12A8 009:822 JLINK_ReadReg(R8)  returns 0x00000000 (0000ms, 0977ms total)
T12A8 009:822 JLINK_ReadReg(R9)  returns 0x00000000 (0000ms, 0977ms total)
T12A8 009:822 JLINK_ReadReg(R10)  returns 0x08010A10 (0000ms, 0977ms total)
T12A8 009:822 JLINK_ReadReg(R11)  returns 0x00000000 (0000ms, 0977ms total)
T12A8 009:822 JLINK_ReadReg(R12)  returns 0x20001ED8 (0000ms, 0977ms total)
T12A8 009:822 JLINK_ReadReg(R13)  returns 0x200024E0 (0000ms, 0977ms total)
T12A8 009:822 JLINK_ReadReg(R14)  returns 0x0800053D (0000ms, 0977ms total)
T12A8 009:822 JLINK_ReadReg(R15)  returns 0x08000672 (0000ms, 0977ms total)
T12A8 009:822 JLINK_ReadReg(XPSR)  returns 0x61000000 (0000ms, 0977ms total)
T12A8 009:822 JLINK_ReadReg(MSP)  returns 0x200024E0 (0000ms, 0977ms total)
T12A8 009:822 JLINK_ReadReg(PSP)  returns 0x00000000 (0000ms, 0977ms total)
T12A8 009:822 JLINK_ReadReg(CFBP)  returns 0x04000001 (0000ms, 0977ms total)
T12A8 009:822 JLINK_ReadReg(FPSCR)  returns 0x03000000 (0000ms, 0977ms total)
T12A8 009:822 JLINK_ReadReg(FPS0)  returns 0x00000000 (0000ms, 0977ms total)
T12A8 009:822 JLINK_ReadReg(FPS1)  returns 0x00000000 (0000ms, 0977ms total)
T12A8 009:822 JLINK_ReadReg(FPS2)  returns 0x00000000 (0000ms, 0977ms total)
T12A8 009:822 JLINK_ReadReg(FPS3)  returns 0x00000000 (0000ms, 0977ms total)
T12A8 009:822 JLINK_ReadReg(FPS4)  returns 0x00000000 (0000ms, 0977ms total)
T12A8 009:822 JLINK_ReadReg(FPS5)  returns 0x00000000 (0000ms, 0977ms total)
